
**** 05/08/25 15:58:27 ******* PSpice Lite (March 2016) ******* ID# 10813 ****

 ** Profile: "SCHEMATIC1-sim3"  [ C:\EEC 111 Labs\Lab #3\Lab #3-PSpiceFiles\SCHEMATIC1\sim3.sim ] 


 ****     CIRCUIT DESCRIPTION


******************************************************************************




** Creating circuit file "sim3.cir" 
** WARNING: THIS AUTOMATICALLY GENERATED FILE MAY BE OVERWRITTEN BY SUBSEQUENT SIMULATIONS

*Libraries: 
* Profile Libraries :
.INC "C:\EEC 111 Labs\Lab #3\Lab #3-PSpiceFiles\SCHEMATIC1\sim3\sim3_profile.inc" 
* Local Libraries :
* From [PSPICE NETLIST] section of C:\Users\herob\AppData\Roaming\SPB_Data\cdssetup\OrCAD_PSpice\17.2.0\PSpice.ini file:

**** INCLUDING sim3_profile.inc ****
.LIB    ".\cd4007.lib" 

**** RESUMING sim3.cir ****
.lib "nomd.lib" 

*Analysis directives: 
.OP
.OPTIONS ADVCONV
.PROBE64 V(alias(*)) I(alias(*)) W(alias(*)) D(alias(*)) NOISE(alias(*)) 
.INC "..\SCHEMATIC1.net" 



**** INCLUDING SCHEMATIC1.net ****
* source LAB #3
M_M1         NDN NGN NSN NSN nnMOS           
M_M2         NSP NGP NDP NSP ppMOS           
R_R1         NSP NVDD  240 TC=0,0 
R_R2         0 NDP  1000 TC=0,0 
R_R3         0 NGP  39000 TC=0,0 
R_R4         NGP NVDD  62000 TC=0,0 
R_R5         NDN NVDD  1000 TC=0,0 
R_R6         NGN NVDD  30000 TC=0,0 
R_R7         0 NGN  68000 TC=0,0 
R_R8         0 NSN  240 TC=0,0 
V_VDD         NVDD 0 5Vdc

**** RESUMING sim3.cir ****
.END

**** 05/08/25 15:58:27 ******* PSpice Lite (March 2016) ******* ID# 10813 ****

 ** Profile: "SCHEMATIC1-sim3"  [ C:\EEC 111 Labs\Lab #3\Lab #3-PSpiceFiles\SCHEMATIC1\sim3.sim ] 


 ****     MOSFET MODEL PARAMETERS


******************************************************************************




               nnMOS           ppMOS           
               NMOS            PMOS            
       LEVEL    2               2            
           L  100.000000E-06  100.000000E-06 
           W  100.000000E-06  100.000000E-06 
         VTO    1.4            -1            
          KP  600.000000E-06  600.000000E-06 
       GAMMA    0               0            
         PHI     .6              .6          
      LAMBDA    5.000000E-03     .01         
          IS   10.000000E-15   10.000000E-15 
          JS    0               0            
          PB     .8              .8          
        PBSW     .8              .8          
          CJ    0               0            
        CJSW    0               0            
        CGSO    0               0            
        CGDO    0               0            
        CGBO    0               0            
         TOX  100.000000E-09  100.000000E-09 
          XJ    0               0            
       UCRIT   10.000000E+03   10.000000E+03 
      DIOMOD    1               1            
         VFB    0               0            
        LETA    0               0            
        WETA    0               0            
          U0    0               0            
        TEMP    0               0            
         VDD    5               5            
       XPART    0               0            


**** 05/08/25 15:58:27 ******* PSpice Lite (March 2016) ******* ID# 10813 ****

 ** Profile: "SCHEMATIC1-sim3"  [ C:\EEC 111 Labs\Lab #3\Lab #3-PSpiceFiles\SCHEMATIC1\sim3.sim ] 


 ****     SMALL SIGNAL BIAS SOLUTION       TEMPERATURE =   27.000 DEG C


******************************************************************************



 NODE   VOLTAGE     NODE   VOLTAGE     NODE   VOLTAGE     NODE   VOLTAGE


(  NDN)    3.9818  (  NDP)    1.0335  (  NGN)    3.4694  (  NGP)    1.9307      

(  NSN)     .2444  (  NSP)    4.7520  ( NVDD)    5.0000  




    VOLTAGE SOURCE CURRENTS
    NAME         CURRENT

    V_VDD       -2.152E-03

    TOTAL POWER DISSIPATION   1.08E-02  WATTS


**** 05/08/25 15:58:27 ******* PSpice Lite (March 2016) ******* ID# 10813 ****

 ** Profile: "SCHEMATIC1-sim3"  [ C:\EEC 111 Labs\Lab #3\Lab #3-PSpiceFiles\SCHEMATIC1\sim3.sim ] 


 ****     OPERATING POINT INFORMATION      TEMPERATURE =   27.000 DEG C


******************************************************************************






**** MOSFETS


NAME         M_M1        M_M2      
MODEL        nnMOS       ppMOS     
ID           1.02E-03    1.03E-03 
VGS          3.23E+00    8.97E-01 
VDS          3.74E+00    3.72E+00 
VBS          0.00E+00    3.72E+00 
VTH          1.40E+00   -1.00E+00 
VDSAT        1.83E+00   -1.82E+00 
Lin0/Sat1   -1.00E+00   -1.00E+00 
if          -1.00E+00   -1.00E+00 
ir          -1.00E+00   -1.00E+00 
TAU         -1.00E+00   -1.00E+00 
GM           1.12E-03    1.14E-03 
GDS          5.19E-06    1.07E-05 
GMB          0.00E+00    0.00E+00 
CBD          0.00E+00    0.00E+00 
CBS          0.00E+00    0.00E+00 
CGSOV        0.00E+00    0.00E+00 
CGDOV        0.00E+00    0.00E+00 
CGBOV        0.00E+00    0.00E+00 
CGS          2.30E-12    0.00E+00 
CGD          0.00E+00    2.30E-12 
CGB          0.00E+00    0.00E+00 

          JOB CONCLUDED

**** 05/08/25 15:58:27 ******* PSpice Lite (March 2016) ******* ID# 10813 ****

 ** Profile: "SCHEMATIC1-sim3"  [ C:\EEC 111 Labs\Lab #3\Lab #3-PSpiceFiles\SCHEMATIC1\sim3.sim ] 


 ****     JOB STATISTICS SUMMARY


******************************************************************************



  Total job time (using Solver 1)   =         .05
