
**** 05/01/25 12:42:13 ******* PSpice Lite (March 2016) ******* ID# 10813 ****

 ** Profile: "SCHEMATIC1-sim2"  [ C:\EEC 111 Labs\Lab #2\Lab #2-PSpiceFiles\SCHEMATIC1\sim2.sim ] 


 ****     CIRCUIT DESCRIPTION


******************************************************************************




** Creating circuit file "sim2.cir" 
** WARNING: THIS AUTOMATICALLY GENERATED FILE MAY BE OVERWRITTEN BY SUBSEQUENT SIMULATIONS

*Libraries: 
* Profile Libraries :
* Local Libraries :
* From [PSPICE NETLIST] section of C:\Users\herob\AppData\Roaming\SPB_Data\cdssetup\OrCAD_PSpice\17.2.0\PSpice.ini file:
.lib "nomd.lib" 

*Analysis directives: 
.TRAN  0 0.01s 0 0.000001 
.OPTIONS ADVCONV
.PROBE64 V(alias(*)) I(alias(*)) W(alias(*)) D(alias(*)) NOISE(alias(*)) 
.INC "..\SCHEMATIC1.net" 



**** INCLUDING SCHEMATIC1.net ****
* source LAB #2
V_VS         NVIN 0  
+SIN 0.0 4 1000 0 0 0
R_R1         NVIN NVOUT  1k TC=0,0 
D_D1         NVOUT N03171 D1N4002 
V_V1         N03171 0 1.35Vdc
V_V2         0 N03175 2.4Vdc
D_D2         N03175 NVOUT D1N4002 

**** RESUMING sim2.cir ****
.END

**** 05/01/25 12:42:13 ******* PSpice Lite (March 2016) ******* ID# 10813 ****

 ** Profile: "SCHEMATIC1-sim2"  [ C:\EEC 111 Labs\Lab #2\Lab #2-PSpiceFiles\SCHEMATIC1\sim2.sim ] 


 ****     Diode MODEL PARAMETERS


******************************************************************************




               D1N4002         
          IS   14.110000E-09 
           N    1.984        
         ISR  100.000000E-12 
         IKF   94.81         
          BV  100.1          
         IBV   10            
          RS     .03389      
          TT    4.761000E-06 
         CJO   51.170000E-12 
          VJ     .3905       
           M     .2762       


**** 05/01/25 12:42:13 ******* PSpice Lite (March 2016) ******* ID# 10813 ****

 ** Profile: "SCHEMATIC1-sim2"  [ C:\EEC 111 Labs\Lab #2\Lab #2-PSpiceFiles\SCHEMATIC1\sim2.sim ] 


 ****     INITIAL TRANSIENT SOLUTION       TEMPERATURE =   27.000 DEG C


******************************************************************************



 NODE   VOLTAGE     NODE   VOLTAGE     NODE   VOLTAGE     NODE   VOLTAGE


( NVIN)    0.0000  (NVOUT)-21.04E-09  (N03171)    1.3500 (N03175)   -2.4000 




    VOLTAGE SOURCE CURRENTS
    NAME         CURRENT

    V_VS        -2.104E-11
    V_V1        -1.426E-08
    V_V2        -1.428E-08

    TOTAL POWER DISSIPATION   5.35E-08  WATTS



          JOB CONCLUDED

**** 05/01/25 12:42:13 ******* PSpice Lite (March 2016) ******* ID# 10813 ****

 ** Profile: "SCHEMATIC1-sim2"  [ C:\EEC 111 Labs\Lab #2\Lab #2-PSpiceFiles\SCHEMATIC1\sim2.sim ] 


 ****     JOB STATISTICS SUMMARY


******************************************************************************



  Total job time (using Solver 1)   =         .34
